
// HDCP... Nothing connected
write to 0x3A nak
...
write to 0x3A nak

// Read EDID Page 0
write to 0x50 ack data: 0x00 
read to 0x50 ack data: 0x00 0xFF 0xFF 0xFF 0xFF 0xFF 0xFF 0x00 0x24 0x62 0x00 0x32 0x01 0x01 0x01 0x01 0x10 0x1C 0x01 0x03 0x80 0x47 0x28 0x78 0x3E 0x64 0x35 0xA5 0x54 0x4F 0x9E 0x27 0x12 0x50 0x54 0xBF 0xEF 0x80 0xD1 0xC0 0xB3 0x00 0xA9 0xC0 0x95 0x00 0x90 0x40 0x81 0x80 0x81 0x40 0x81 0xC0 0x40 0xD0 0x00 0xA0 0xF0 0x70 0x3E 0x80 0x30 0x20 0x35 0x00 0x54 0x4F 0x21 0x00 0x00 0x1A 0xB4 0x66 0x00 0xA0 0xF0 0x70 0x1F 0x80 0x30 0x20 0x35 0x00 0x80 0x88 0x42 0x00 0x00 0x1A 0x00 0x00 0x00 0xFC 0x00 0x48 0x44 0x4D 0x49 0x31 0x0A 0x20 0x20 0x20 0x20 0x20 0x20 0x20 0x00 0x00 0x00 0xFD 0x00 0x18 0x90 0x0F 0xDE 0x3C 0x00 0x0A 0x20 0x20 0x20 0x20 0x20 0x20 0x01 0x31
// Read EDID Page 1
write to 0x50 ack data: 0x80 
read to 0x50 ack data: 0x02 0x03 0x4F 0xF2 0x5E 0x04 0x05 0x10 0x13 0x14 0x1F 0x20 0x21 0x22 0x27 0x48 0x49 0x4A 0x4B 0x4C 0x5D 0x5E 0x5F 0x60 0x61 0x62 0x63 0x64 0x65 0x66 0x67 0x68 0x69 0x6A 0x6B 0xE2 0x00 0xC0 0xE3 0x05 0xC0 0x00 0x23 0x09 0x7F 0x07 0x83 0x01 0x00 0x00 0xE5 0x0F 0x00 0x00 0x0C 0x00 0x67 0x03 0x0C 0x00 0x10 0x00 0x38 0x78 0x67 0xD8 0x5D 0xC4 0x01 0x78 0x88 0x01 0xE6 0x06 0x05 0x01 0x69 0x69 0x4F 0x02 0x3A 0x80 0x18 0x71 0x38 0x2D 0x40 0x58 0x2C 0x25 0x00 0x55 0x50 0x21 0x00 0x00 0x1E 0x69 0x5E 0x00 0xA0 0xA0 0xA0 0x29 0x50 0x30 0x20 0x35 0x00 0x00 0xB0 0x31 0x00 0x00 0x1E 0x00 0x00 0x00 0x00 0x00 0x00 0x00 0x00 0x00 0x00 0x00 0x00 0xDF

// SCDC
write to 0x54 nak

// HDCP HDCP2Version 
write to 0x3A ack data: 0x50 
// Supports HDCP2.2 or higher
read to 0x3A ack data: 0x04

// HDCP Write_Message: msg_id=0x02 AKE_Init, Data len=11
// Last 3 bytes: 0x02 0x00 0x00 -> HDCP transmitter version = 0x02
write to 0x3A ack data: 0x60 0x02 0xBB 0xDA 0x14 0x6B 0x44 0xFB 0x1A 0x0C 0x02 0x00 0x00 

// HDCP RxStatus
write to 0x3A ack data: 0x70 
// Message length 0x216/534
read to 0x3A ack data: 0x16 0x02

// HDCP Read_Message
write to 0x3A ack data: 0x80 
// Read 534 bytes: msg_id=0x03 AKE_Send_Cert
// Last 3 bytes: 0x02 0x00 0x00 -> RxCaps: receiver version 0x02, REPEATER=0 (!!!)
read to 0x3A ack data: 0x03 0xF1 0x60 0xD1 0x6B 0x65 0xB6 0x64 0x2B 0x4F 0x58 0x6F 0x6E 0x9F 0xF2 0x44 0x94 0x19 0xA3 0xC4 0x74 0x7D 0x68 0x50 0x57 0xCE 0x59 0xEA 0xC6 0x10 0xF7 0x30 0xE0 0xA8 0x54 0x19 0xA4 0xC1 0x5A 0x5E 0xDD 0xD1 0xBC 0x21 0x8E 0xE2 0x88 0x09 0x96 0xBA 0x7B 0x4D 0x49 0xEF 0x3B 0x04 0x72 0xC7 0xE1 0xE8 0x4D 0x3F 0xB2 0x4D 0xC4 0xF9 0x74 0x96 0xAD 0xD3 0x65 0x8D 0xE8 0xF7 0x81 0x0B 0xC6 0xA2 0x47 0x87 0xB2 0x11 0xF8 0xB1 0x47 0xA7 0xB3 0x4B 0x8A 0x84 0x5E 0x9F 0xCA 0xC1 0x18 0xC3 0x24 0xB8 0xDF 0x33 0x8E 0x80 0x48 0x2F 0xBD 0x05 0x6A 0xC6 0xDD 0x2F 0xC3 0x01 0x01 0xEA 0x0D 0x3C 0x18 0x8D 0x0C 0x67 0xA9 0xD8 0x02 0x33 0xDB 0xDB 0x45 0x61 0x17 0x58 0xF6 0x39 0x0E 0x5D 0x01 0x00 0x01 0x10 0x00 0xA6 0xDC 0xE8 0xD9 0x86 0xB8 0x57 0x99 0x05 0x2C 0x1F 0xB0 0x49 0x0F 0xD4 0x6A 0x16 0x34 0xEF 0xAA 0xB2 0xBF 0xD3 0xE7 0x0F 0x6D 0x68 0x77 0x5D 0xAF 0x18 0x53 0xFB 0x74 0xF4 0xBA 0xD1 0x3A 0x55 0xBF 0xF6 0x8F 0x8C 0x21 0xDC 0xC1 0xD3 0x72 0x0B 0x47 0x7C 0xEB 0x42 0x59 0x81 0x55 0xED 0x03 0x3B 0x12 0xF6 0xD0 0x5A 0xE7 0x63 0x26 0x0D 0xEF 0xC8 0x2C 0x37 0x0C 0xB9 0x92 0x8F 0xD9 0xED 0x6A 0xF5 0x68 0x02 0x28 0x27 0x10 0x0E 0x8E 0xD9 0x85 0x22 0xF6 0xB1 0x24 0x26 0x99 0xEA 0xA7 0x54 0x76 0x5D 0xF1 0xF0 0x01 0x2A 0xA6 0x00 0x4F 0x67 0x87 0x17 0x9D 0xB5 0xD3 0xE5 0xF1 0x07 0x67 0x74 0xE1 0x6B 0x96 0x6D 0x4B 0xBB 0x32 0xF6 0xE9 0x38 0x28 0x19 0x1C 0xD1 0x75 0x2D 0x99 0x10 0x90 0x15 0x11 0x6F 0xD4 0xED 0x32 0x4E 0x40 0x8A 0x16 0xE6 0xE8 0xA2 0xA9 0x3B 0x5E 0x17 0xA2 0xC0 0x1E 0xE7 0x30 0xA4 0xAA 0xA5 0x01 0xC4 0xF5 0x71 0x12 0xA9 0x7A 0xC8 0x6F 0x81 0x07 0x11 0x0B 0x5E 0x56 0x17 0x72 0xB9 0x2C 0xA1 0x02 0x69 0xFF 0x88 0x6A 0xD0 0xDB 0x03 0x23 0x18 0x46 0xC8 0xAD 0x48 0x1D 0xB3 0xAA 0xB8 0xEE 0xC6 0xF6 0xF2 0x0D 0x73 0x99 0x6D 0xDF 0xBB 0x6E 0x74 0x7A 0x7D 0x71 0x32 0xDA 0xBA 0xA9 0xFC 0xD4 0x67 0x94 0xE2 0x5E 0xA2 0xB2 0x77 0x1D 0x20 0x7A 0x86 0x97 0x50 0x97 0x65 0xED 0x6B 0xFC 0x0F 0x0C 0x68 0x15 0xA6 0x12 0xF7 0xBD 0xE4 0x7E 0x7D 0xD6 0xBB 0xD4 0x44 0xBC 0x42 0x68 0x38 0x77 0xAC 0x27 0xD8 0x3D 0x35 0xDD 0x8C 0x7C 0x9A 0x19 0x29 0x8B 0xBB 0x8D 0x6C 0x09 0x99 0x7A 0xA3 0x2D 0xFC 0xEC 0xB3 0xAF 0xC1 0xD2 0xDE 0x3D 0x43 0xF5 0x7E 0x97 0xCA 0x49 0xAA 0x46 0x82 0x59 0x65 0x4D 0xAE 0x91 0xD4 0xF9 0xD1 0x1F 0xFC 0xBB 0x19 0xD9 0xD9 0xC0 0xE5 0x9C 0xD3 0xB2 0xD4 0x04 0x68 0xB6 0x92 0x81 0x7F 0xD0 0x63 0x05 0xC4 0x20 0x25 0xBD 0x6D 0xFA 0x0B 0x6C 0xE2 0xC8 0xE1 0x92 0xCE 0x5A 0x15 0x1B 0xE2 0xF8 0xFB 0x00 0xE9 0x61 0xAA 0x2B 0xB8 0x69 0x9D 0x10 0xD6 0x2D 0x64 0xB1 0x35 0xA4 0x4B 0x86 0x5D 0xA3 0xDD 0x2D 0x2A 0x19 0x3C 0xFD 0x46 0x28 0x99 0x71 0xA0 0x08 0x22 0x69 0x7C 0x76 0x47 0x53 0x96 0xB4 0xAD 0x67 0x5F 0x88 0x4A 0x2D 0x22 0x4B 0x08 0x18 0x02 0x00 0x00

// HDCP Write_Message: msg_id=0x04 AKE_No_Stored_km: Ekpub_km (128 bytes)
write to 0x3A ack data: 0x60 0x04 0x9D 0x34 0x97 0x5B 0x0A 0x01 0x2E 0x82 0xBD 0x36 0xF3 0xF5 0x32 0x9C 0xAA 0xFC 0xE7 0x01 0xD0 0x69 0xA6 0x41 0x11 0xF1 0xD8 0xEE 0x71 0xA5 0xD9 0xA1 0xE7 0x42 0xE4 0x60 0x30 0x6C 0xD2 0x58 0xD1 0x5F 0xA5 0x54 0x88 0xD1 0xFB 0x72 0x5D 0x98 0xD4 0x9E 0x68 0xA5 0x6C 0x36 0x9B 0x58 0x55 0x03 0x18 0x0A 0xCD 0x53 0x44 0x38 0x7A 0xD8 0xD5 0x3A 0xE7 0x17 0x76 0xED 0xB4 0xA1 0x43 0xB8 0x5B 0xB2 0x61 0xB1 0xB6 0x63 0xE7 0xD9 0x0E 0x7C 0x9B 0x56 0x41 0x2C 0x03 0x1F 0x33 0x85 0x87 0x55 0xB9 0xDC 0x22 0x68 0xF1 0x28 0x3C 0x0D 0xD2 0x84 0xFA 0x99 0x6C 0xE6 0x8C 0x44 0x2B 0xAF 0xE5 0x45 0x4C 0xDC 0xFB 0xF8 0x9D 0xAD 0x1C 0x43 0x22 0x8C 0x71 0xCE 

// HDCP RxStatus
write to 0x3A ack data: 0x70 
read to 0x3A ack data: 0x00 0x00
...
write to 0x3A ack data: 0x70 
read to 0x3A ack data: 0x00 0x00

// HDCP RxStatus
write to 0x3A ack data: 0x70 
// Message length 0x021/33
read to 0x3A ack data: 0x21 0x00

// HDCP Read_Message
write to 0x3A ack data: 0x80 
// Read 33 bytes: msg_id=0x07 AKE_Send_H_prime + H'
read to 0x3A ack data: 0x07 0xCB 0xE5 0x55 0x3C 0x8F 0x38 0x96 0x1A 0x67 0xE8 0xED 0x40 0x54 0xD7 0x39 0xD4 0xC9 0xB2 0xB8 0x87 0x73 0xF8 0xAB 0x80 0xE7 0x1E 0x53 0x03 0x08 0x76 0xAD 0x03

// HDCP RxStatus
write to 0x3A ack data: 0x70 
// Message length 0x011/17
read to 0x3A ack data: 0x11 0x00

// HDCP Read_Message
write to 0x3A ack data: 0x80 
// REady 17 bytes: msg_id=AKE_Send_Pairing_Info + Ekh_km
read to 0x3A ack data: 0x08 0x63 0x25 0x12 0xC7 0x74 0x9D 0x46 0x81 0xAC 0x78 0x7B 0x38 0xAF 0x99 0x60 0xA2
 
// HDCP Write_Message: msg_id=0x09 LC_Init + Rn (8 bytes)
write to 0x3A ack data: 0x60 0x09 0x82 0x84 0x1C 0x28 0x63 0x85 0xB5 0x6F 

// HDCP RxStatus
write to 0x3A ack data: 0x70 
// Message length 0x021/33
read to 0x3A ack data: 0x21 0x00

// HDCP Read_Message
write to 0x3A ack data: 0x80 
// Read 33 bytes: msg_id=LC_Send_L_prime + L (32 bytes)
read to 0x3A ack data: 0x0A 0xEB 0xE9 0x28 0xDD 0x7F 0x0A 0x01 0x43 0xFC 0xFD 0x5E 0xAB 0xFB 0x3D 0x47 0x74 0xDE 0x6C 0x55 0xE6 0x18 0x67 0xC7 0x53 0x91 0xB9 0xE0 0x7E 0x28 0xDA 0xAC 0xA2

// HDCP Write_Message: msg_id=0x0b SKE_Send_Eks + Edkey_ks (16 bytes)  + Riv (8 bytes)
write to 0x3A ack data: 0x60 0x0B 0x36 0x4A 0x3E 0x93 0xE7 0xD5 0x89 0xFF 0x8A 0xCE 0x21 0x0D 0xA1 0xCA 0xF2 0x51 0x25 0x36 0x78 0xD0 0x62 0x5B 0xEE 0x72 


// HDCP RxStatus
write to 0x3A ack data: 0x70 
read to 0x3A ack data: 0x00 0x00
write to 0x3A ack data: 0x70 
read to 0x3A ack data: 0x00 0x00
...

